Title: ** generated for: eldo
Date: Mon Oct 22 22:56:07  2018
Plotname: Operating Point
Flags: real
No. Variables: 61
No. Points: 1       
Variables:
	0	v(@m.xinova.mnm0[vgs])	voltage
	1	v(@m.xinova.mnm0[vth])	voltage
	2	v(@m.xinova.mnm0[vds])	voltage
	3	v(@m.xinova.mnm0[vdsat])	voltage
	4	i(@m.xinova.mnm0[id])	current
	5	v(@m.xinova.mnm1[vgs])	voltage
	6	v(@m.xinova.mnm1[vth])	voltage
	7	v(@m.xinova.mnm1[vds])	voltage
	8	v(@m.xinova.mnm1[vdsat])	voltage
	9	i(@m.xinova.mnm1[id])	current
	10	v(@m.xinova.mnm2[vgs])	voltage
	11	v(@m.xinova.mnm2[vth])	voltage
	12	v(@m.xinova.mnm2[vds])	voltage
	13	v(@m.xinova.mnm2[vdsat])	voltage
	14	i(@m.xinova.mnm2[id])	current
	15	v(@m.xinova.mnm3[vgs])	voltage
	16	v(@m.xinova.mnm3[vth])	voltage
	17	v(@m.xinova.mnm3[vds])	voltage
	18	v(@m.xinova.mnm3[vdsat])	voltage
	19	i(@m.xinova.mnm3[id])	current
	20	v(@m.xinova.mnm4[vgs])	voltage
	21	v(@m.xinova.mnm4[vth])	voltage
	22	v(@m.xinova.mnm4[vds])	voltage
	23	v(@m.xinova.mnm4[vdsat])	voltage
	24	i(@m.xinova.mnm4[id])	current
	25	v(@m.xinova.mnm5[vgs])	voltage
	26	v(@m.xinova.mnm5[vth])	voltage
	27	v(@m.xinova.mnm5[vds])	voltage
	28	v(@m.xinova.mnm5[vdsat])	voltage
	29	i(@m.xinova.mnm5[id])	current
	30	v(@m.xinova.mnm6[vgs])	voltage
	31	v(@m.xinova.mnm6[vth])	voltage
	32	v(@m.xinova.mnm6[vds])	voltage
	33	v(@m.xinova.mnm6[vdsat])	voltage
	34	i(@m.xinova.mnm6[id])	current
	35	v(@m.xinova.mnm7[vgs])	voltage
	36	v(@m.xinova.mnm7[vth])	voltage
	37	v(@m.xinova.mnm7[vds])	voltage
	38	v(@m.xinova.mnm7[vdsat])	voltage
	39	i(@m.xinova.mnm7[id])	current
	40	v(@m.xinova.mnm8[vgs])	voltage
	41	v(@m.xinova.mnm8[vth])	voltage
	42	v(@m.xinova.mnm8[vds])	voltage
	43	v(@m.xinova.mnm8[vdsat])	voltage
	44	i(@m.xinova.mnm8[id])	current
	45	v(@m.xinova.mnm9[vgs])	voltage
	46	v(@m.xinova.mnm9[vth])	voltage
	47	v(@m.xinova.mnm9[vds])	voltage
	48	v(@m.xinova.mnm9[vdsat])	voltage
	49	i(@m.xinova.mnm9[id])	current
	50	v(@m.xinova.mnm10[vgs])	voltage
	51	v(@m.xinova.mnm10[vth])	voltage
	52	v(@m.xinova.mnm10[vds])	voltage
	53	v(@m.xinova.mnm10[vdsat])	voltage
	54	i(@m.xinova.mnm10[id])	current
	55	v(@m.xinova.mnm11[vgs])	voltage
	56	v(@m.xinova.mnm11[vth])	voltage
	57	v(@m.xinova.mnm11[vds])	voltage
	58	v(@m.xinova.mnm11[vdsat])	voltage
	59	i(@m.xinova.mnm11[id])	current
	60	i(@vdc[i])	current
Values:
0		9.281539993763532e-01
	5.834342528602676e-01
	1.575151240919005e+00
	2.722067080243782e-01
	1.126830301837156e-04
	9.281495521229477e-01
	5.421539960177558e-01
	9.281398781085510e-01
	2.708690940951609e-01
	1.363666759245592e-05
	9.281495520979286e-01
	5.421539960179335e-01
	9.281398780835324e-01
	2.708690940796577e-01
	1.363666759080914e-05
	9.281539993513332e-01
	5.834342528526344e-01
	1.575151242681448e+00
	2.722067080123839e-01
	1.126830301824729e-04
	5.492715671573312e-01
	4.967387284300588e-01
	1.271111251894514e+00
	9.083150786958707e-02
	1.363666020774185e-05
	5.492715671510531e-01
	4.967387284300522e-01
	1.271111251913256e+00
	9.083150786624948e-02
	1.363666020636031e-05
	5.492716403589624e-01
	4.970275141746683e-01
	2.199270624439975e+00
	9.125956713581382e-02
	5.997795470245056e-05
	5.492716403652405e-01
	4.970275141746672e-01
	2.199270624446253e+00
	9.125956713918762e-02
	5.997795470858695e-05
	1.649911220750205e+00
	4.416060929089561e-01
	1.100549785216082e+00
	8.237912413591557e-01
	7.361463498829146e-05
	1.649911220750205e+00
	4.416060929089563e-01
	1.100549785209805e+00
	8.237912413591557e-01
	7.361463498825665e-05
	1.603250187928866e+00
	4.564312996505716e-01
	1.724668435891524e+00
	7.768004067531807e-01
	1.126830297330851e-04
	1.603250187928869e+00
	4.564312996506200e-01
	1.724668434129087e+00
	7.768004067531542e-01
	1.126830297293599e-04
	-4.725953507232797e-04
