Title: ** generated for: eldo
Date: Tue Nov  6 15:21:12  2018
Plotname: Operating Point
Flags: real
No. Variables: 61
No. Points: 1       
Variables:
	0	v(@m.xinova.mnm0[vgs])	voltage
	1	v(@m.xinova.mnm0[vth])	voltage
	2	v(@m.xinova.mnm0[vds])	voltage
	3	v(@m.xinova.mnm0[vdsat])	voltage
	4	i(@m.xinova.mnm0[id])	current
	5	v(@m.xinova.mnm1[vgs])	voltage
	6	v(@m.xinova.mnm1[vth])	voltage
	7	v(@m.xinova.mnm1[vds])	voltage
	8	v(@m.xinova.mnm1[vdsat])	voltage
	9	i(@m.xinova.mnm1[id])	current
	10	v(@m.xinova.mnm2[vgs])	voltage
	11	v(@m.xinova.mnm2[vth])	voltage
	12	v(@m.xinova.mnm2[vds])	voltage
	13	v(@m.xinova.mnm2[vdsat])	voltage
	14	i(@m.xinova.mnm2[id])	current
	15	v(@m.xinova.mnm3[vgs])	voltage
	16	v(@m.xinova.mnm3[vth])	voltage
	17	v(@m.xinova.mnm3[vds])	voltage
	18	v(@m.xinova.mnm3[vdsat])	voltage
	19	i(@m.xinova.mnm3[id])	current
	20	v(@m.xinova.mnm4[vgs])	voltage
	21	v(@m.xinova.mnm4[vth])	voltage
	22	v(@m.xinova.mnm4[vds])	voltage
	23	v(@m.xinova.mnm4[vdsat])	voltage
	24	i(@m.xinova.mnm4[id])	current
	25	v(@m.xinova.mnm5[vgs])	voltage
	26	v(@m.xinova.mnm5[vth])	voltage
	27	v(@m.xinova.mnm5[vds])	voltage
	28	v(@m.xinova.mnm5[vdsat])	voltage
	29	i(@m.xinova.mnm5[id])	current
	30	v(@m.xinova.mnm6[vgs])	voltage
	31	v(@m.xinova.mnm6[vth])	voltage
	32	v(@m.xinova.mnm6[vds])	voltage
	33	v(@m.xinova.mnm6[vdsat])	voltage
	34	i(@m.xinova.mnm6[id])	current
	35	v(@m.xinova.mnm7[vgs])	voltage
	36	v(@m.xinova.mnm7[vth])	voltage
	37	v(@m.xinova.mnm7[vds])	voltage
	38	v(@m.xinova.mnm7[vdsat])	voltage
	39	i(@m.xinova.mnm7[id])	current
	40	v(@m.xinova.mnm8[vgs])	voltage
	41	v(@m.xinova.mnm8[vth])	voltage
	42	v(@m.xinova.mnm8[vds])	voltage
	43	v(@m.xinova.mnm8[vdsat])	voltage
	44	i(@m.xinova.mnm8[id])	current
	45	v(@m.xinova.mnm9[vgs])	voltage
	46	v(@m.xinova.mnm9[vth])	voltage
	47	v(@m.xinova.mnm9[vds])	voltage
	48	v(@m.xinova.mnm9[vdsat])	voltage
	49	i(@m.xinova.mnm9[id])	current
	50	v(@m.xinova.mnm10[vgs])	voltage
	51	v(@m.xinova.mnm10[vth])	voltage
	52	v(@m.xinova.mnm10[vds])	voltage
	53	v(@m.xinova.mnm10[vdsat])	voltage
	54	i(@m.xinova.mnm10[id])	current
	55	v(@m.xinova.mnm11[vgs])	voltage
	56	v(@m.xinova.mnm11[vth])	voltage
	57	v(@m.xinova.mnm11[vds])	voltage
	58	v(@m.xinova.mnm11[vdsat])	voltage
	59	i(@m.xinova.mnm11[id])	current
	60	i(@vdc[i])	current
Values:
0		1.002066667881488e+00
	6.667388923782527e-01
	1.665852349182202e+00
	2.629269444718822e-01
	9.757355851239301e-05
	1.002064729923506e+00
	6.663855118908947e-01
	1.002058266051408e+00
	2.368925472415627e-01
	9.111591161905889e-06
	1.002064729949494e+00
	6.663855118907187e-01
	1.002058266077395e+00
	2.368925472575734e-01
	9.111591163219908e-06
	1.002066667907476e+00
	6.667388923877872e-01
	1.665852346891098e+00
	2.629269444831039e-01
	9.757355851167004e-05
	6.058755756355707e-01
	5.690246319258341e-01
	1.253803654121399e+00
	8.120903323798480e-02
	9.111584137367245e-06
	6.058755756401424e-01
	5.690246319258390e-01
	1.253803654099983e+00
	8.120903324017253e-02
	9.111584138075685e-06
	6.058755594960583e-01
	5.652618865732658e-01
	2.255874815631809e+00
	8.373022992933214e-02
	4.391634790223457e-05
	6.058755594914869e-01
	5.652618865732664e-01
	2.255874815627238e+00
	8.373022992706429e-02
	4.391634789882732e-05
	1.649936048289125e+00
	5.350803365751512e-01
	1.043995793211912e+00
	7.609496537053251e-01
	5.302795263347152e-05
	1.649936048289125e+00
	5.350803365751512e-01
	1.043995793216483e+00
	7.609496537053251e-01
	5.302795263348929e-05
	1.670024108748773e+00
	5.311115215900942e-01
	1.633991506850308e+00
	7.629051087172598e-01
	9.757355860520988e-05
	1.670024108748770e+00
	5.311115215900517e-01
	1.633991509141406e+00
	7.629051087172819e-01
	9.757355860968406e-05
	-4.012030426508950e-04
